! SIEMENS Discrete & RF Semiconductors
! BBY53-03W
! Si Tuning Diode in SOD323
! VR = 1.75 V     
! S-Parameters:                                         May  1997
# GHz  S  MA  R  50
!  f          S11
! GHz     MAG     ANG
 0.010  0.99999   -1.5  
 0.020  0.99997   -2.9  
 0.050  0.99999   -7.3  
 0.100  0.99976  -14.6  
 0.150  0.99993  -21.8  
 0.200  0.99950  -29.0  
 0.250  0.99844  -35.9  
 0.300  0.99755  -42.8  
 0.400  0.99587  -56.0  
 0.500  0.99266  -68.5  
 0.600  0.98986  -80.1  
 0.700  0.98720  -90.8  
 0.800  0.98400 -100.8  
 0.900  0.98213 -110.0  
 1.000  0.97979 -118.4  
 1.100  0.97774 -126.3  
 1.200  0.97560 -133.6  
 1.300  0.97490 -140.4  
 1.400  0.97334 -146.7  
 1.500  0.97250 -152.6  
 1.600  0.97137 -158.1  
 1.700  0.97038 -163.3  
 1.800  0.96954 -168.3  
 1.900  0.96916 -172.9  
 2.000  0.96859 -177.3  
 2.200  0.96727  174.5  
 2.400  0.96568  167.2  
 2.600  0.96571  160.4  
 2.800  0.96505  154.3  
 3.000  0.96466  148.6  
!
! SIEMENS AG  Semiconductor Group, Munich
