! SIEMENS Discrete & RF Semiconductors
! BBY53-03W
! Si Tuning Diode in SOD323
! VR = 1.5 V     
! S-Parameters:                                         May  1997
# GHz  S  MA  R  50
!  f          S11
! GHz     MAG     ANG
 0.010  0.99996   -1.6  
 0.020  0.99999   -3.2  
 0.050  0.99999   -8.0  
 0.100  0.99976  -16.0  
 0.150  0.99963  -23.8  
 0.200  0.99906  -31.6  
 0.250  0.99850  -39.1  
 0.300  0.99708  -46.5  
 0.400  0.99538  -60.6  
 0.500  0.99207  -73.7  
 0.600  0.98906  -85.7  
 0.700  0.98583  -96.7  
 0.800  0.98339 -106.7  
 0.900  0.98078 -115.9  
 1.000  0.97887 -124.2  
 1.100  0.97703 -132.0  
 1.200  0.97493 -139.1  
 1.300  0.97391 -145.7  
 1.400  0.97293 -151.8  
 1.500  0.97225 -157.5  
 1.600  0.97144 -162.8  
 1.700  0.97059 -167.8  
 1.800  0.96949 -172.5  
 1.900  0.96873 -177.0  
 2.000  0.96785  178.8  
 2.200  0.96767  171.1  
 2.400  0.96611  164.1  
 2.600  0.96553  157.6  
 2.800  0.96571  151.7  
 3.000  0.96480  146.2  
!
! SIEMENS AG  Semiconductor Group, Munich
