! SIEMENS Discrete & RF Semiconductors
! BBY53-03W
! Si Tuning Diode in SOD323
! VR = 1 V     
! S-Parameters:                                         May  1997
# GHz  S  MA  R  50
!  f          S11
! GHz     MAG     ANG
 0.010  0.99945   -1.9  
 0.020  0.99986   -3.9  
 0.050  0.99995   -9.6  
 0.100  0.99975  -19.1  
 0.150  0.99976  -28.5  
 0.200  0.99860  -37.6  
 0.250  0.99778  -46.4  
 0.300  0.99607  -54.9  
 0.400  0.99391  -70.7  
 0.500  0.99020  -84.9  
 0.600  0.98681  -97.4  
 0.700  0.98367 -108.6  
 0.800  0.98116 -118.6  
 0.900  0.97912 -127.5  
 1.000  0.97722 -135.6  
 1.100  0.97596 -142.9  
 1.200  0.97416 -149.6  
 1.300  0.97330 -155.6  
 1.400  0.97183 -161.3  
 1.500  0.97148 -166.5  
 1.600  0.97107 -171.4  
 1.700  0.97041 -175.9  
 1.800  0.96924  179.8  
 1.900  0.96889  175.8  
 2.000  0.96809  172.0  
 2.200  0.96763  164.9  
 2.400  0.96675  158.5  
 2.600  0.96620  152.5  
 2.800  0.96578  147.1  
 3.000  0.96551  142.0  
!
! SIEMENS AG  Semiconductor Group, Munich
