! SIEMENS Discrete & RF Semiconductors
! BBY53-03W
! Si Tuning Diode in SOD323
! VR = 2.5 V     
! S-Parameters:                                         May  1997
# GHz  S  MA  R  50
!  f          S11
! GHz     MAG     ANG
 0.010  0.99964   -1.2  
 0.020  0.99999   -2.2  
 0.050  0.99999   -5.6  
 0.100  0.99999  -11.2  
 0.150  0.99995  -16.8  
 0.200  0.99931  -22.4  
 0.250  0.99942  -27.9  
 0.300  0.99845  -33.3  
 0.400  0.99727  -44.1  
 0.500  0.99535  -54.5  
 0.600  0.99294  -64.5  
 0.700  0.99051  -74.2  
 0.800  0.98774  -83.3  
 0.900  0.98584  -92.1  
 1.000  0.98336 -100.4  
 1.100  0.98128 -108.4  
 1.200  0.97849 -115.9  
 1.300  0.97738 -123.0  
 1.400  0.97569 -129.8  
 1.500  0.97462 -136.2  
 1.600  0.97343 -142.3  
 1.700  0.97239 -148.0  
 1.800  0.97096 -153.6  
 1.900  0.96984 -158.8  
 2.000  0.96938 -163.8  
 2.200  0.96709 -173.1  
 2.400  0.96603  178.4  
 2.600  0.96586  170.7  
 2.800  0.96413  163.6  
 3.000  0.96385  157.1  
!
! SIEMENS AG  Semiconductor Group, Munich
