! SIEMENS Discrete & RF Semiconductors
! BBY53-03W
! Si Tuning Diode in SOD323
! VR = 2 V     
! S-Parameters:                                         May  1997
# GHz  S  MA  R  50
!  f          S11
! GHz     MAG     ANG
 0.010  0.99965   -1.3  
 0.020  0.99999   -2.7  
 0.050  0.99999   -6.7  
 0.100  0.99999  -13.4  
 0.150  0.99966  -20.0  
 0.200  0.99918  -26.6  
 0.250  0.99900  -33.0  
 0.300  0.99804  -39.4  
 0.400  0.99662  -51.8  
 0.500  0.99398  -63.6  
 0.600  0.99107  -74.7  
 0.700  0.98805  -85.1  
 0.800  0.98527  -94.8  
 0.900  0.98339 -104.0  
 1.000  0.98054 -112.5  
 1.100  0.97907 -120.5  
 1.200  0.97641 -127.9  
 1.300  0.97541 -134.8  
 1.400  0.97400 -141.3  
 1.500  0.97336 -147.4  
 1.600  0.97235 -153.2  
 1.700  0.97130 -158.6  
 1.800  0.96990 -163.7  
 1.900  0.96947 -168.6  
 2.000  0.96858 -173.2  
 2.200  0.96750  178.3  
 2.400  0.96592  170.6  
 2.600  0.96578  163.6  
 2.800  0.96506  157.1  
 3.000  0.96450  151.2  
!
! SIEMENS AG  Semiconductor Group, Munich
