! SIEMENS Discrete & RF Semiconductors
! BBY53-03W
! Si Tuning Diode in SOD323
! VR = 3.5 V     
! S-Parameters:                                         May  1997
# GHz  S  MA  R  50
!  f          S11
! GHz     MAG     ANG
 0.010  0.99999   -0.9  
 0.020  0.99999   -1.7  
 0.050  0.99999   -4.2  
 0.100  0.99989   -8.4  
 0.150  0.99999  -12.7  
 0.200  0.99977  -16.8  
 0.250  0.99964  -21.0  
 0.300  0.99897  -25.2  
 0.400  0.99842  -33.5  
 0.500  0.99704  -41.8  
 0.600  0.99517  -49.9  
 0.700  0.99330  -57.9  
 0.800  0.99124  -65.7  
 0.900  0.98963  -73.4  
 1.000  0.98732  -80.9  
 1.100  0.98536  -88.3  
 1.200  0.98307  -95.4  
 1.300  0.98159 -102.4  
 1.400  0.97951 -109.1  
 1.500  0.97837 -115.6  
 1.600  0.97685 -122.0  
 1.700  0.97541 -128.1  
 1.800  0.97384 -134.0  
 1.900  0.97238 -139.7  
 2.000  0.97201 -145.2  
 2.200  0.96931 -155.6  
 2.400  0.96701 -165.4  
 2.600  0.96655 -174.3  
 2.800  0.96469  177.4  
 3.000  0.96421  169.8  
!
! SIEMENS AG  Semiconductor Group, Munich
