! SIEMENS Discrete & RF Semiconductors
! BBY53-03W
! Si Tuning Diode in SOD323
! VR = 3 V     
! S-Parameters:                                         May  1997
# GHz  S  MA  R  50
!  f          S11
! GHz     MAG     ANG
 0.010  0.99988   -1.0  
 0.020  0.99997   -1.9  
 0.050  0.99999   -4.8  
 0.100  0.99999   -9.5  
 0.150  0.99999  -14.3  
 0.200  0.99969  -19.1  
 0.250  0.99921  -23.8  
 0.300  0.99884  -28.5  
 0.400  0.99800  -37.8  
 0.500  0.99620  -47.0  
 0.600  0.99412  -55.9  
 0.700  0.99183  -64.6  
 0.800  0.98974  -73.1  
 0.900  0.98804  -81.3  
 1.000  0.98534  -89.3  
 1.100  0.98360  -97.0  
 1.200  0.98112 -104.3  
 1.300  0.97980 -111.5  
 1.400  0.97768 -118.3  
 1.500  0.97680 -124.8  
 1.600  0.97482 -131.1  
 1.700  0.97355 -137.2  
 1.800  0.97271 -142.9  
 1.900  0.97129 -148.5  
 2.000  0.97041 -153.8  
 2.200  0.96838 -163.7  
 2.400  0.96696 -172.9  
 2.600  0.96628  178.6  
 2.800  0.96428  170.9  
 3.000  0.96395  163.8  
!
! SIEMENS AG  Semiconductor Group, Munich
