! SIEMENS Discrete & RF Semiconductors
! BBY53-03W
! Si Tuning Diode in SOD323
! VR = 4 V     
! S-Parameters:                                         May  1997
# GHz  S  MA  R  50
!  f          S11
! GHz     MAG     ANG
 0.010  0.99996   -0.8  
 0.020  0.99999   -1.6  
 0.050  0.99999   -3.9  
 0.100  0.99978   -7.8  
 0.150  0.99999  -11.7  
 0.200  0.99984  -15.6  
 0.250  0.99945  -19.5  
 0.300  0.99927  -23.4  
 0.400  0.99862  -31.1  
 0.500  0.99735  -38.9  
 0.600  0.99567  -46.5  
 0.700  0.99411  -54.0  
 0.800  0.99250  -61.4  
 0.900  0.99085  -68.7  
 1.000  0.98823  -75.9  
 1.100  0.98650  -83.1  
 1.200  0.98396  -90.0  
 1.300  0.98295  -96.8  
 1.400  0.98085 -103.4  
 1.500  0.97986 -109.9  
 1.600  0.97812 -116.2  
 1.700  0.97699 -122.3  
 1.800  0.97505 -128.3  
 1.900  0.97399 -134.1  
 2.000  0.97299 -139.6  
 2.200  0.96946 -150.3  
 2.400  0.96772 -160.3  
 2.600  0.96681 -169.5  
 2.800  0.96497 -178.2  
 3.000  0.96429  173.9  
!
! SIEMENS AG  Semiconductor Group, Munich
