! SIEMENS Discrete & RF Semiconductors
! BBY53-03W
! Si Tuning Diode in SOD323
! VR = 5 V     
! S-Parameters:                                         May  1997
# GHz  S  MA  R  50
!  f          S11
! GHz     MAG     ANG
 0.010  0.99999   -0.8  
 0.020  0.99999   -1.5  
 0.050  0.99979   -3.6  
 0.100  0.99999   -7.2  
 0.150  0.99998  -10.9  
 0.200  0.99974  -14.5  
 0.250  0.99934  -18.2  
 0.300  0.99930  -21.8  
 0.400  0.99900  -29.0  
 0.500  0.99780  -36.3  
 0.600  0.99605  -43.4  
 0.700  0.99463  -50.6  
 0.800  0.99307  -57.6  
 0.900  0.99185  -64.6  
 1.000  0.98946  -71.5  
 1.100  0.98749  -78.3  
 1.200  0.98507  -85.1  
 1.300  0.98404  -91.7  
 1.400  0.98206  -98.2  
 1.500  0.98079 -104.5  
 1.600  0.97957 -110.8  
 1.700  0.97779 -116.9  
 1.800  0.97605 -122.9  
 1.900  0.97492 -128.7  
 2.000  0.97398 -134.3  
 2.200  0.97055 -145.1  
 2.400  0.96895 -155.3  
 2.600  0.96764 -164.8  
 2.800  0.96522 -173.8  
 3.000  0.96451  177.9  
!
! SIEMENS AG  Semiconductor Group, Munich
