! SIEMENS Discrete & RF Semiconductors
! BBY53-03W
! Si Tuning Diode in SOD323
! VR = 6 V     
! S-Parameters:                                         May  1997
# GHz  S  MA  R  50
!  f          S11
! GHz     MAG     ANG
 0.010  0.99976   -0.7  
 0.020  0.99991   -1.4  
 0.050  0.99999   -3.5  
 0.100  0.99985   -7.0  
 0.150  0.99990  -10.6  
 0.200  0.99978  -14.1  
 0.250  0.99970  -17.6  
 0.300  0.99901  -21.1  
 0.400  0.99894  -28.1  
 0.500  0.99772  -35.1  
 0.600  0.99639  -42.1  
 0.700  0.99500  -49.0  
 0.800  0.99310  -55.9  
 0.900  0.99204  -62.7  
 1.000  0.98968  -69.4  
 1.100  0.98787  -76.2  
 1.200  0.98599  -82.8  
 1.300  0.98427  -89.3  
 1.400  0.98253  -95.7  
 1.500  0.98131 -102.0  
 1.600  0.97986 -108.2  
 1.700  0.97843 -114.3  
 1.800  0.97685 -120.3  
 1.900  0.97534 -126.1  
 2.000  0.97417 -131.7  
 2.200  0.97104 -142.6  
 2.400  0.96887 -152.8  
 2.600  0.96799 -162.5  
 2.800  0.96534 -171.5  
 3.000  0.96442  180.0  
!
! SIEMENS AG  Semiconductor Group, Munich
