! SIEMENS Discrete & RF Semiconductors
! BBY53-03W
! Si Tuning Diode in SOD323
! VR = 0 V     
! S-Parameters:                                         May  1997
# GHz  S  MA  R  50
!  f          S11
! GHz     MAG     ANG
 0.010  0.99982   -0.7  
 0.020  0.99997   -1.4  
 0.050  0.99999   -3.5  
 0.100  0.99985   -7.0  
 0.150  0.99999  -10.6  
 0.200  0.99971  -14.1  
 0.250  0.99984  -17.6  
 0.300  0.99911  -21.1  
 0.400  0.99904  -28.1  
 0.500  0.99783  -35.2  
 0.600  0.99644  -42.1  
 0.700  0.99488  -49.0  
 0.800  0.99315  -55.9  
 0.900  0.99189  -62.7  
 1.000  0.98963  -69.5  
 1.100  0.98800  -76.2  
 1.200  0.98584  -82.8  
 1.300  0.98445  -89.3  
 1.400  0.98262  -95.8  
 1.500  0.98111 -102.0  
 1.600  0.97992 -108.3  
 1.700  0.97850 -114.3  
 1.800  0.97663 -120.3  
 1.900  0.97537 -126.1  
 2.000  0.97439 -131.7  
 2.200  0.97097 -142.6  
 2.400  0.96893 -152.8  
 2.600  0.96786 -162.5  
 2.800  0.96565 -171.5  
 3.000  0.96448  180.0  
!
! SIEMENS AG  Semiconductor Group, Munich
