! SIEMENS Discrete & RF Semiconductors
! BBY53-03W
! Si Tuning Diode in SOD323
! VR = 0.5 V     
! S-Parameters:                                         May  1997
# GHz  S  MA  R  50
!  f          S11
! GHz     MAG     ANG
 0.010  0.99953   -2.4  
 0.020  0.99999   -4.7  
 0.050  0.99991  -11.8  
 0.100  0.99960  -23.4  
 0.150  0.99907  -34.7  
 0.200  0.99778  -45.5  
 0.250  0.99662  -55.7  
 0.300  0.99478  -65.3  
 0.400  0.99192  -82.7  
 0.500  0.98822  -97.7  
 0.600  0.98466 -110.5  
 0.700  0.98136 -121.4  
 0.800  0.97937 -131.0  
 0.900  0.97786 -139.4  
 1.000  0.97624 -146.8  
 1.100  0.97476 -153.5  
 1.200  0.97354 -159.5  
 1.300  0.97262 -165.1  
 1.400  0.97186 -170.1  
 1.500  0.97142 -174.9  
 1.600  0.97084 -179.2  
 1.700  0.97020  176.7  
 1.800  0.96962  172.8  
 1.900  0.96873  169.2  
 2.000  0.96836  165.7  
 2.200  0.96751  159.3  
 2.400  0.96672  153.4  
 2.600  0.96678  148.0  
 2.800  0.96657  143.0  
 3.000  0.96593  138.3  
!
! SIEMENS AG  Semiconductor Group, Munich
