! SIEMENS Discrete & RF Semiconductors
! BBY53-03W
! Si Tuning Diode in SOD323
! VR = 0.75 V     
! S-Parameters:                                         May  1997
# GHz  S  MA  R  50
!  f          S11
! GHz     MAG     ANG
 0.010  0.99946   -2.2  
 0.020  0.99999   -4.3  
 0.050  0.99979  -10.6  
 0.100  0.99977  -21.1  
 0.150  0.99905  -31.3  
 0.200  0.99800  -41.2  
 0.250  0.99738  -50.7  
 0.300  0.99566  -59.8  
 0.400  0.99280  -76.4  
 0.500  0.98900  -91.0  
 0.600  0.98537 -103.7  
 0.700  0.98264 -114.9  
 0.800  0.98000 -124.7  
 0.900  0.97833 -133.4  
 1.000  0.97674 -141.2  
 1.100  0.97530 -148.2  
 1.200  0.97363 -154.6  
 1.300  0.97326 -160.4  
 1.400  0.97195 -165.8  
 1.500  0.97153 -170.7  
 1.600  0.97083 -175.4  
 1.700  0.96983 -179.7  
 1.800  0.96915  176.3  
 1.900  0.96904  172.4  
 2.000  0.96824  168.8  
 2.200  0.96785  162.0  
 2.400  0.96687  155.9  
 2.600  0.96658  150.2  
 2.800  0.96635  144.9  
 3.000  0.96558  140.1  
!
! SIEMENS AG  Semiconductor Group, Munich
